一、读单个寄存器测试:
1.读Zigbee转换板的软件版本号: 00 03 00 00 00 01 85 DB
	主机收到回复数据为：00 03 04 00 00 00 65 2A D8
	
2.读Zigbee转换板的硬件版本号: 00 03 00 01 00 01 D4 1B
    主机收到回复数据为：00 03 04 00 01 00 02 3A F2 
	
3.读无线数据升级标志位：00 03 00 02 00 01 24 1B
	主机收到回复数据为：00 03 04 00 02 00 00 4B 33  
	

二、写单个寄存器测试：
1.开启组网测试数据: 00 06 C0 11 00 01 25 DE
	主机收到回复数据为：00 06 C0 11 00 01 25 DE
	IPOP会打印Open zigbee network

2.关闭组网测试数据: 00 06 C0 11 00 00 E4 1E
	主机收到回复数据为：00 06 C0 11 00 00 E4 1E
	IPOP会打印Close zigbee network
	
3.单板复位测试数据: 00 06 C1 00 A5 A5 0E CC
	主机收到回复数据为：00 06 C1 00 A5 A5 0E CC 
	主机收到回复后， Zigbee转换板最后会复位
	
4.擦除Zigbee转换板网络参数测试数据: 00 06 C1 01 A5 A5 5F 0C
	主机收到回复数据为：00 06 C1 01 A5 A5 5F 0C 
	主机收到回复后， Zigbee转换板最后会复位
	
	
三、透传测试：
1.485数据透传数据给IBAT测试数据：00 41 20 0C 00 01 00 08 FF FF 00 01 00 01 55 95 BF E4
	主机收到回复数据为：00 41 20 0C 00 01 00 08 FF FF 00 01 00 01 55 95 BF E4 
	
	
四、组网测试流程：
0. 首先IBAT必须长按按键5秒以上，擦除网络参数，绿灯常亮。

1.开启组网测试数据: 00 06 C0 11 00 01 25 DE
	主机收到回复数据为：00 06 C0 11 00 01 25 DE
	
2.短按IBAT的按键一次，打开IBAT组网，绿灯快闪。
	
3.查询无线数据更新标志：00 03 00 02 00 01 24 1B
	主机收到回复数据为：00 03 04 00 02 00 01 8A F3 (表示IBAT上传的无线数据已经更新)
	主机收到回复数据为：00 03 04 00 02 00 00 4B 33 (表示IBAT的无线数据没有更新)

4.无线数据文件加载启动测试数据: 00 41 05 01 90 21 C1
	主机收到回复数据为：00 41 05 08 90 00 00 00 30 18 75 54 E3 EB (无线数据文件CRC为 75 54) -- (这行测试数据在每次重新组网后会有变化)

5.无线数据文件加载传输数据测试：
(1) 第1帧 -- 00 41 06 03 90 00 01 5D B8
	主机收到回复数据为： 00 41 06 1B 90 00 01 00 00 00 00 01 00 00 00 00 00 00 00 00 00 00 00 00 00 00 00 00 00 00 00 6B 2C (这行测试数据在每次重新组网后会有变化)
(2) 第2帧 -- 00 41 06 03 90 00 02 1D B9
	主机收到回复数据为： 00 41 06 1B 90 00 02 00 00 00 00 00 00 24 86 00 01 03 2A 00 42 5A 8B 1B 0B 00 4B 12 00 DF 35 68 AD (这行测试数据在每次重新组网后会有变化)

6.无线数据文件加载完成测试数据：00 41 0C 01 90 F1 C3 
	主机收到回复数据为：00 41 0C 03 90 75 54 23 16 (返回计算得到无线数据文件CRC为 75 54) -- 无线数据文件CRC相等表示接收数据成功! -- (这行测试数据在每次重新组网后会有变化)

7.单个IBAT组网透传测试：
(1).下发设备编号透传测试数据：00 41 20 0C 00 01 00 08 FF FF 00 01 00 01 70 7E E5 3B	(这行测试数据在每次重新组网后会有变化)
	主机收到回复数据为： 00 41 20 0C 00 01 00 08 FF FF 00 01 00 01 70 7E E5 3B (这行测试数据在每次重新组网后会有变化)

IBAT绿灯慢闪表示组网成功！

8.关闭组网测试数据: 00 06 C0 11 00 00 E4 1E
	主机收到回复数据为：00 06 C0 11 00 00 E4 1E
	IPOP会打印Close zigbee network


五、IBAT模拟量数据采集测试：
1.下发设备编号透传测试数据：00 41 20 0C 00 01 00 08 FF FF 00 02 A5 A5 00 00 67 F4
	主机收到回复数据为：00 41 20 0C 00 01 00 08 FF FF 00 02 A5 A5 00 00 67 F4

2.查询无线数据更新标志：00 03 00 02 00 01 24 1B
	主机收到回复数据为：00 03 04 00 02 00 01 8A F3 (表示IBAT上传的无线数据已经更新)
	主机收到回复数据为：00 03 04 00 02 00 00 4B 33 (表示IBAT的无线数据没有上传成功)

3.无线数据文件上传启动测试数据: 00 41 05 01 90 21 C1
	主机收到回复数据为：00 41 05 08 90 00 00 00 44 22 FF F3 FE CC

4.无线数据文件上传传输数据测试：
(1) 第1帧 -- 00 41 06 03 90 00 01 5D B8
	主机收到回复数据为：00 41 06 25 90 00 01 00 00 00 00 02 00 00 00 00 00 00 00 00 00 00 00 00 00 00 00 00 00 00 00 00 00 00 00 00 00 A6 62 00 02 5D AF (这行测试数据为实时数据，每次都会不同)
	
(2) 第2帧 -- 00 41 06 03 90 00 02 1D B9
	主机收到回复数据为：00 41 06 25 90 00 02 05 03 00 42 00 01 00 1B 41 4B 59 B7 00 00 00 00 00 00 00 00 00 00 00 00 41 DF A8 CE FF 73 00 00 E9 C2 B8 A4 (这行测试数据为实时数据，每次都会不同)

5.无线数据文件上传完成测试数据：00 41 0C 01 90 F1 C3 
	主机收到回复数据为：00 41 0C 03 90 FF F3 05 CC
	
	
六、擦除网络参数测试流程：
1.主机下发的擦除IBAT网络参数的透传数据: 00 41 20 0C 00 00 00 06 FF FF 00 37 A5 A5 85 51
	主机收到回复数据为：00 41 20 0C 00 00 00 06 FF FF 00 37 A5 A5 85 51
	
2.擦除Zigbee转换板网络参数测试数据: 00 06 C1 01 A5 A5 5F 0C
	主机收到回复数据为：00 06 C1 01 A5 A5 5F 0C
擦除Zigbee转换板网络参数后单板会复位，并且复位前主机接收到Zigbee转换板回复的数据为: 00 06 C1 01 A5 A5 5F 0C


七、电子标签(文件大小是4的倍数)文件加载测试：
1.电子标签文件加载启动：00 41 01 06 AB 00 00 01 24 40 B9 73
	主机收到回复数据为：00 41 01 06 AB 00 00 01 24 40 B9 73 

2.电子标签文件加载传输数据测试：
(1) 第1帧 -- 00 41 02 44 AB 00 01 40 01 02 03 04 05 06 07 08 09 0A 0B 0C 0D 0E 0F 10 11 12 13 14 15 16 17 18 19 1A 1B 1C 1D 1E 1F 20 01 02 03 04 05 06 07 08 09 0A 0B 0C 0D 0E 0F 10 11 12 13 14 15 16 17 18 19 1A 1B 1C 1D 1E 1F 20 81 E2
	主机收到回复数据为： 00 41 02 04 AB 00 40 01 31 09
	
(2) 第2帧 -- 00 41 02 44 AB 00 02 40 01 02 03 04 05 06 07 08 09 0A 0B 0C 0D 0E 0F 10 11 12 13 14 15 16 17 18 19 1A 1B 1C 1D 1E 1F 20 01 02 03 04 05 06 07 08 09 0A 0B 0C 0D 0E 0F 10 11 12 13 14 15 16 17 18 19 1A 1B 1C 1D 1E 1F 20 71 DE
	主机收到回复数据为： 00 41 02 04 AB 00 40 02 71 08 
	
(3) 第3帧 -- 00 41 02 44 AB 00 03 40 01 02 03 04 05 06 07 08 09 0A 0B 0C 0D 0E 0F 10 11 12 13 14 15 16 17 18 19 1A 1B 1C 1D 1E 1F 20 01 02 03 04 05 06 07 08 09 0A 0B 0C 0D 0E 0F 10 11 12 13 14 15 16 17 18 19 1A 1B 1C 1D 1E 1F 20 20 0A
	主机收到回复数据为： 00 41 02 04 AB 00 40 03 B0 C8
	
(4) 第4帧 -- 00 41 02 44 AB 00 04 40 01 02 03 04 05 06 07 08 09 0A 0B 0C 0D 0E 0F 10 11 12 13 14 15 16 17 18 19 1A 1B 1C 1D 1E 1F 20 01 02 03 04 05 06 07 08 09 0A 0B 0C 0D 0E 0F 10 11 12 13 14 15 16 17 18 19 1A 1B 1C 1D 1E 1F 20 91 A7
	主机收到回复数据为： 00 41 02 04 AB 00 40 04 F1 0D FE
	
(5) 第5帧 -- 00 41 02 44 AB 00 05 24 01 02 03 04 05 06 07 08 09 0A 0B 0C 0D 0E 0F 10 11 12 13 14 15 16 17 18 19 1A 1B 1C 1D 1E 1F 20 01 02 03 04 28 E4
	主机收到回复数据为： 00 41 02 04 AB 00 24 05 1A 0D FE
	
3.电子标签文件加载完成测试数据：00 41 03 03 AB 33 2D F5 58
	主机收到回复数据为： 00 41 03 03 AB 33 2D F5 58
	

八、电子标签(文件大小是4的倍数)文件上传测试：
1.电子标签文件上传启动测试数据: 00 41 05 01 AB 60 12
	主机收到回复数据为： 00 41 05 08 AB 00 00 01 24 49 33 2D 3B 2F

2.电子标签文件上传传输数据测试：
(1) 第1帧 -- 00 41 06 03 AB 00 01 2C 75
	主机收到回复数据为：00 41 06 4C AB 00 01 01 02 03 04 05 06 07 08 09 0D 0A 0B 0C 0D 0E 0F 10 11 12 13 14 15 16 17 18 19 1A 1B 1C 1D 1E 1F 20 01 02 03 04 05 06 07 08 09 0D 0A 0B 0C 0D 0E 0F 10 11 12 13 14 15 16 17 18 19 1A 1B 1C 1D 1E 1F 20 01 02 03 04 05 06 07 08 09 6B D6

(2) 第2帧 -- 00 41 06 03 AB 00 02 6C 74
	主机收到回复数据为：00 41 06 4C AB 00 02 0D 0A 0B 0C 0D 0E 0F 10 11 12 13 14 15 16 17 18 19 1A 1B 1C 1D 1E 1F 20 01 02 03 04 05 06 07 08 09 0D 0A 0B 0C 0D 0E 0F 10 11 12 13 14 15 16 17 18 19 1A 1B 1C 1D 1E 1F 20 01 02 03 04 05 06 07 08 09 0D 0A 0B 0C 0D 0E 0F 10 11 12 7E FB 
	
(3) 第3帧 -- 00 41 06 03 AB 00 03 AD B4
	主机收到回复数据为：00 41 06 4C AB 00 03 13 14 15 16 17 18 19 1A 1B 1C 1D 1E 1F 20 01 02 03 04 05 06 07 08 09 0D 0A 0B 0C 0D 0E 0F 10 11 12 13 14 15 16 17 18 19 1A 1B 1C 1D 1E 1F 20 01 02 03 04 05 06 07 08 09 0D 0A 0B 0C 0D 0E 0F 10 11 12 13 14 15 16 17 18 19 1A 1B 75 56 

(4) 第4帧 -- 00 41 06 03 AB 00 04 EC 76
	主机收到回复数据为：00 41 06 4C AB 00 04 1C 1D 1E 1F 20 01 02 03 04 05 06 07 08 09 0D 0A 0B 0C 0D 0E 0F 10 11 12 13 14 15 16 17 18 19 1A 1B 1C 1D 1E 1F 20 01 02 03 04 05 06 07 08 09 0D 0A 0B 0C 0D 0E 0F 10 11 12 13 14 15 16 17 18 19 1A 1B 1C 1D 1E 1F 20 01 02 03 04 70 F5

3.电子标签文件上传完成测试数据： 00 41 0C 01 AB B0 10 
	主机收到回复数据为：00 41 0C 03 AB 33 2D A1 59


九、电子标签(文件大小不是4的倍数)文件加载测试：
1.电子标签文件加载启动：00 41 01 06 AB 00 00 00 39 39 20 01
	主机收到回复数据为：00 41 01 06 AB 00 00 00 39 39 20 01 

2.电子标签文件加载传输数据测试：
(1) 第1帧 -- 00 41 02 3D AB 00 01 39 01 02 03 04 05 06 07 08 09 0A 0B 0C 0D 0E 0F 10 11 12 13 14 15 16 17 18 19 1A 1B 1C 1D 1E 1F 20 01 02 03 04 05 06 07 08 09 0A 0B 0C 0D 0E 0F 10 11 12 13 14 15 16 17 18 19 A1 61
	主机收到回复数据为：00 41 02 04 AB 00 39 01 12 99
	
3.电子标签文件加载完成测试数据：00 41 03 03 AB 8D 3F 04 F5
	主机收到回复数据为：00 41 03 03 AB 8D 3F 04 F5
	

十、电子标签(文件大小不是4的倍数)文件上传测试：
1.电子标签文件上传启动测试数据: 00 41 05 01 AB 60 12
	主机收到回复数据为：00 41 05 08 AB 00 00 00 39 1E 8D 3F 40 FE 	(电子标签文件CRC为 8D 3F)

2.电子标签文件上传传输数据测试：
(1) 第1帧 -- 00 41 06 03 AB 00 01 2C 75
	主机收到回复数据为：00 41 06 21 AB 00 01 01 02 03 04 05 06 07 08 09 0D 0A 0B 0C 0D 0E 0F 10 11 12 13 14 15 16 17 18 19 1A 1B 1C 1D 1E E6 C3
	
(2) 第2帧 -- 00 41 06 03 AB 00 02 6C 74
	主机收到回复数据为：00 41 06 1E AB 00 02 1F 20 01 02 03 04 05 06 07 08 09 0D 0A 0B 0C 0D 0E 0F 10 11 12 13 14 15 16 17 18 19 53 E9

3.电子标签文件上传完成测试数据： 00 41 0C 01 AB B0 10 
	主机收到回复数据为：00 41 0C 03 AB 8D 3F 50 F4 	(返回计算得到电子标签文件CRC为 8D 3F表示上传的文件数据是正确的)
